
**** 06/02/05 14:21:30 ********* PSpice 9.2 (Mar 2000) ******** ID# 1 ********

 ** Profile: "SCHEMATIC1-pr21"  [ C:\PROGRAM FILES\ORCAD\CAPTURE\PROJECTS\SCHEMATA2\pr2-SCHEMATIC1-pr21.sim ] 


 ****     CIRCUIT DESCRIPTION


******************************************************************************




** Creating circuit file "pr2-SCHEMATIC1-pr21.sim.cir" 
** WARNING: THIS AUTOMATICALLY GENERATED FILE MAY BE OVERWRITTEN BY SUBSEQUENT SIMULATIONS

*Libraries: 
* Local Libraries :
* From [PSPICE NETLIST] section of C:\Program Files\Orcad\PSpice\PSpice.ini file:
.lib "nom.lib" 

*Analysis directives: 
.TRAN  0 1000ns 0 
.PROBE V(*) I(*) W(*) D(*) NOISE(*) 
.INC ".\pr2-SCHEMATIC1.net" 



**** INCLUDING pr2-SCHEMATIC1.net ****
* source PR2
Q_Q1         N00365 N00450 N00509 KT3102 
V_V2         0 N00645 15Vdc
V_V3         N00450 0 0.01Vdc
Q_Q2         N00394 N00479 N00509 KT3102 
V_V4         N00479 0 0.03Vdc
Q_Q3         N00509 N00575 N00672 KT3102 
Q_Q4         N00575 N00575 N00645 KT3102 
R_R1         N00365 N00323  171k  
R_R2         N00394 N00323  171k  
R_R3         N00645 N00672  950  
R_R4         0 N00575  14.35k  
V_V1         N00323 0 15Vdc

**** RESUMING pr2-SCHEMATIC1-pr21.sim.cir ****
.END

**** 06/02/05 14:21:30 ********* PSpice 9.2 (Mar 2000) ******** ID# 1 ********

 ** Profile: "SCHEMATIC1-pr21"  [ C:\PROGRAM FILES\ORCAD\CAPTURE\PROJECTS\SCHEMATA2\pr2-SCHEMATIC1-pr21.sim ] 


 ****     BJT MODEL PARAMETERS


******************************************************************************




               KT3102          
               NPN             
          IS    5.911000E-15 
          BF  809.9          
          NF    1            
         VAF   62.37         
         IKF     .01426      
         ISE    5.911000E-15 
          NE    1.358        
          BR    1.287        
          NR    1            
          RB   10            
          RC    1.61         
         CJE    4.973000E-12 
         MJE     .42         
         CJC    4.017000E-12 
         MJC     .32         
          TF  820.900000E-12 
         XTF    7            
         VTF    4            
         ITF     .35         
          TR    4.680000E-09 
         XTB    1.5          
          CN    2.42         
           D     .87         


**** 06/02/05 14:21:30 ********* PSpice 9.2 (Mar 2000) ******** ID# 1 ********

 ** Profile: "SCHEMATIC1-pr21"  [ C:\PROGRAM FILES\ORCAD\CAPTURE\PROJECTS\SCHEMATA2\pr2-SCHEMATIC1-pr21.sim ] 


 ****     INITIAL TRANSIENT SOLUTION       TEMPERATURE =   27.000 DEG C


******************************************************************************



 NODE   VOLTAGE     NODE   VOLTAGE     NODE   VOLTAGE     NODE   VOLTAGE


(N00323)   15.0000 (N00365)   10.6850 (N00394)    6.2379 (N00450)     .0100     

(N00479)     .0300 (N00509)    -.5595 (N00575)  -14.3300 (N00645)  -15.0000     

(N00672)  -14.9270 




    VOLTAGE SOURCE CURRENTS
    NAME         CURRENT

    V_V2        -1.075E-03
    V_V3        -9.167E-08
    V_V4        -1.727E-07
    V_V1        -7.647E-05

    TOTAL POWER DISSIPATION   1.73E-02  WATTS



          JOB CONCLUDED

          TOTAL JOB TIME             .05
