
**** 06/07/05 14:26:22 ********* PSpice 9.2 (Mar 2000) ******** ID# 1 ********

 ** Profile: "SCHEMATIC1-pr41"  [ C:\PROGRAM FILES\ORCAD\CAPTURE\PROJECTS\SCHEMATA4\pr4-SCHEMATIC1-pr41.sim ] 


 ****     CIRCUIT DESCRIPTION


******************************************************************************




** Creating circuit file "pr4-SCHEMATIC1-pr41.sim.cir" 
** WARNING: THIS AUTOMATICALLY GENERATED FILE MAY BE OVERWRITTEN BY SUBSEQUENT SIMULATIONS

*Libraries: 
* Local Libraries :
* From [PSPICE NETLIST] section of C:\Program Files\Orcad\PSpice\PSpice.ini file:
.lib "nom.lib" 

*Analysis directives: 
.AC DEC 10 10 1e6
.PROBE V(*) I(*) W(*) D(*) NOISE(*) 
.INC ".\pr4-SCHEMATIC1.net" 



**** INCLUDING pr4-SCHEMATIC1.net ****
* source PR4
X_U2         N00897 N00222 N01008 N01137 N01182 UA741 
R_R1         0 N00222  30.303k  
R_R2         N00222 N01182  3000k  
R_R3         N00346 N00897  100k  
V_V1         0 N01137 15Vdc
V_V2         N01008 0 15Vdc
V_V5         N00346 0 DC 0Vdc AC 1Vac 

**** RESUMING pr4-SCHEMATIC1-pr41.sim.cir ****
.END

**** 06/07/05 14:26:22 ********* PSpice 9.2 (Mar 2000) ******** ID# 1 ********

 ** Profile: "SCHEMATIC1-pr41"  [ C:\PROGRAM FILES\ORCAD\CAPTURE\PROJECTS\SCHEMATA4\pr4-SCHEMATIC1-pr41.sim ] 


 ****     Diode MODEL PARAMETERS


******************************************************************************




               X_U2.dx         X_U2.dy         
          IS  800.000000E-18  800.000000E-18 
          RS    1               1.000000E-03 
         CJO                   10.000000E-12 


**** 06/07/05 14:26:22 ********* PSpice 9.2 (Mar 2000) ******** ID# 1 ********

 ** Profile: "SCHEMATIC1-pr41"  [ C:\PROGRAM FILES\ORCAD\CAPTURE\PROJECTS\SCHEMATA4\pr4-SCHEMATIC1-pr41.sim ] 


 ****     BJT MODEL PARAMETERS


******************************************************************************




               X_U2.qx         
               NPN             
          IS  800.000000E-18 
          BF   93.75         
          NF    1            
          BR    1            
          NR    1            
          CN    2.42         
           D     .87         


**** 06/07/05 14:26:22 ********* PSpice 9.2 (Mar 2000) ******** ID# 1 ********

 ** Profile: "SCHEMATIC1-pr41"  [ C:\PROGRAM FILES\ORCAD\CAPTURE\PROJECTS\SCHEMATA4\pr4-SCHEMATIC1-pr41.sim ] 


 ****     SMALL SIGNAL BIAS SOLUTION       TEMPERATURE =   27.000 DEG C


******************************************************************************



 NODE   VOLTAGE     NODE   VOLTAGE     NODE   VOLTAGE     NODE   VOLTAGE


(N00222)    -.0079 (N00346)    0.0000 (N00897)    -.0080 (N01008)   15.0000     

(N01137)  -15.0000 (N01182)    -.5557 (X_U2.6) 52.37E-06 (X_U2.7)    -.5557     

(X_U2.8)    -.5557 (X_U2.9)    0.0000 (X_U2.10)    -.6156                       

(X_U2.11)   14.9600                   (X_U2.12)   14.9600                       

(X_U2.13)    -.6018                   (X_U2.14)    -.6018                       

(X_U2.53)   14.0000                   (X_U2.54)  -14.0000                       

(X_U2.90)-182.6E-06                   (X_U2.91)   40.0000                       

(X_U2.92)  -40.0000                   (X_U2.99)    0.0000                   




    VOLTAGE SOURCE CURRENTS
    NAME         CURRENT

    V_V1        -1.667E-03
    V_V2        -1.667E-03
    V_V5        -7.972E-08
    X_U2.vb      5.237E-10
    X_U2.vc      1.456E-11
    X_U2.ve      1.455E-11
    X_U2.vlim   -1.826E-07
    X_U2.vlp    -4.000E-11
    X_U2.vln    -4.000E-11

    TOTAL POWER DISSIPATION   5.00E-02  WATTS



          JOB CONCLUDED

          TOTAL JOB TIME             .05
